time	V(n001)	V(n002)
0.000000000000000e+000	0.000000e+000	1.216658e-001
1.149553571428571e-006	1.149554e-001	2.240307e-001
2.299107142857143e-006	2.299107e-001	3.252334e-001
3.448660714285714e-006	3.448661e-001	4.252740e-001
4.598214285714285e-006	4.598214e-001	5.241524e-001
5.747767857142857e-006	5.747768e-001	6.218687e-001
6.897321428571428e-006	6.897321e-001	7.184228e-001
8.046874999999997e-006	8.046875e-001	8.138148e-001
9.999999999999999e-006	1.000000e+000	9.649842e-001
1.019531250000001e-005	1.000000e+000	9.702058e-001
1.292968750000000e-005	1.000000e+000	9.191387e-001
1.488281250000000e-005	1.000000e+000	8.837939e-001
1.683593750000001e-005	1.000000e+000	8.495235e-001
1.878906250000001e-005	1.000000e+000	8.164833e-001
2.074218750000001e-005	1.000000e+000	7.847741e-001
2.269531250000001e-005	1.000000e+000	7.544901e-001
2.464843750000001e-005	1.000000e+000	7.257178e-001
2.660156250000001e-005	1.000000e+000	6.985368e-001
2.855468750000002e-005	1.000000e+000	6.730188e-001
3.050781250000002e-005	1.000000e+000	6.492281e-001
3.246093750000002e-005	1.000000e+000	6.272209e-001
3.441406250000002e-005	1.000000e+000	6.070461e-001
3.636718750000002e-005	1.000000e+000	5.887441e-001
3.832031250000002e-005	1.000000e+000	5.723481e-001
4.027343750000003e-005	1.000000e+000	5.578828e-001
4.222656250000003e-005	1.000000e+000	5.453658e-001
4.417968750000003e-005	1.000000e+000	5.348066e-001
4.613281250000003e-005	1.000000e+000	5.262072e-001
5.003906250000004e-005	1.000000e+000	5.148588e-001
5.199218750000004e-005	1.000000e+000	5.120773e-001
5.394531250000004e-005	1.000000e+000	5.111912e-001
5.589843750000004e-005	1.000000e+000	5.121671e-001
5.785156250000004e-005	1.000000e+000	5.149653e-001
5.980468750000004e-005	1.000000e+000	5.195401e-001
6.175781250000005e-005	1.000000e+000	5.258399e-001
6.371093750000005e-005	1.000000e+000	5.338074e-001
6.566406250000005e-005	1.000000e+000	5.433806e-001
6.761718750000005e-005	1.000000e+000	5.544921e-001
6.957031250000005e-005	1.000000e+000	5.670704e-001
7.152343750000005e-005	1.000000e+000	5.810397e-001
7.347656250000006e-005	1.000000e+000	5.963202e-001
7.542968750000006e-005	1.000000e+000	6.128290e-001
7.933593750000006e-005	1.000000e+000	6.491846e-001
8.324218750000006e-005	1.000000e+000	6.893889e-001
8.714843750000007e-005	1.000000e+000	7.326939e-001
9.105468750000007e-005	1.000000e+000	7.783341e-001
9.496093750000008e-005	1.000000e+000	8.255385e-001
9.886718750000008e-005	1.000000e+000	8.735420e-001
1.027734375000001e-004	1.000000e+000	9.215970e-001
1.066796875000001e-004	1.000000e+000	9.690115e-001
1.100000000000000e-004	1.000000e+000	1.008348e+000
1.114285714285714e-004	8.571429e-001	8.834958e-001
1.128571428571429e-004	7.142857e-001	7.600948e-001
1.142857142857143e-004	5.714286e-001	6.381447e-001
1.157142857142857e-004	4.285714e-001	5.176454e-001
1.171428571428572e-004	2.857143e-001	3.985969e-001
1.185714285714286e-004	1.428571e-001	2.809992e-001
1.200000000000000e-004	0.000000e+000	1.648523e-001
1.223716517857143e-004	0.000000e+000	2.097228e-001
1.247433035714286e-004	0.000000e+000	2.520134e-001
1.271149553571429e-004	0.000000e+000	2.917241e-001
1.294866071428572e-004	0.000000e+000	3.288550e-001
1.318582589285714e-004	0.000000e+000	3.634059e-001
1.342299107142857e-004	0.000000e+000	3.953770e-001
1.366015625000000e-004	0.000000e+000	4.247682e-001
1.405078125000000e-004	0.000000e+000	4.658608e-001
1.444140625000000e-004	0.000000e+000	4.984222e-001
1.483203125000000e-004	0.000000e+000	5.222924e-001
1.522265625000000e-004	0.000000e+000	5.374476e-001
1.541796875000000e-004	0.000000e+000	5.417856e-001
1.561328125000000e-004	0.000000e+000	5.439950e-001
1.580859375000000e-004	0.000000e+000	5.441085e-001
1.600390625000000e-004	0.000000e+000	5.421661e-001
1.619921875000000e-004	0.000000e+000	5.382150e-001
1.639453125000000e-004	0.000000e+000	5.323091e-001
1.658984375000000e-004	0.000000e+000	5.245081e-001
1.678515625000000e-004	0.000000e+000	5.148782e-001
1.698046875000000e-004	0.000000e+000	5.034912e-001
1.717578125000000e-004	0.000000e+000	4.904239e-001
1.737109375000000e-004	0.000000e+000	4.757582e-001
1.756640625000000e-004	0.000000e+000	4.595802e-001
1.776171875000000e-004	0.000000e+000	4.419803e-001
1.795703125000000e-004	0.000000e+000	4.230523e-001
1.815234375000000e-004	0.000000e+000	4.028935e-001
1.834765625000000e-004	0.000000e+000	3.816035e-001
1.854296875000000e-004	0.000000e+000	3.592847e-001
1.873828125000000e-004	0.000000e+000	3.360412e-001
1.893359375000000e-004	0.000000e+000	3.119785e-001
1.932421875000000e-004	0.000000e+000	2.618229e-001
1.971484375000000e-004	0.000000e+000	2.097113e-001
2.000000000000000e-004	0.000000e+000	1.708654e-001
2.014285714285715e-004	1.428571e-001	2.925288e-001
2.028571428571429e-004	2.857143e-001	4.124785e-001
2.042857142857143e-004	4.285714e-001	5.307144e-001
2.057142857142857e-004	5.714286e-001	6.472365e-001
2.071428571428572e-004	7.142857e-001	7.620449e-001
2.085714285714286e-004	8.571429e-001	8.751395e-001
2.100000000000000e-004	1.000000e+000	9.865202e-001
2.126506696428572e-004	1.000000e+000	9.266224e-001
2.153013392857143e-004	1.000000e+000	8.695295e-001
2.179520089285715e-004	1.000000e+000	8.152413e-001
2.206026785714286e-004	1.000000e+000	7.637579e-001
2.232533482142858e-004	1.000000e+000	7.150793e-001
2.259040178571429e-004	1.000000e+000	6.692055e-001
2.285546875000001e-004	1.000000e+000	6.261365e-001
2.305078125000001e-004	1.000000e+000	5.972947e-001
2.324609375000001e-004	1.000000e+000	5.705301e-001
2.344140625000001e-004	1.000000e+000	5.459035e-001
2.363671875000001e-004	1.000000e+000	5.234668e-001
2.383203125000001e-004	1.000000e+000	5.032622e-001
2.402734375000001e-004	1.000000e+000	4.853227e-001
2.422265625000001e-004	1.000000e+000	4.696725e-001
2.441796875000000e-004	1.000000e+000	4.563264e-001
2.461328125000000e-004	1.000000e+000	4.452900e-001
2.480859375000000e-004	1.000000e+000	4.365606e-001
2.500390625000000e-004	1.000000e+000	4.301263e-001
2.519921875000001e-004	1.000000e+000	4.259673e-001
2.539453125000001e-004	1.000000e+000	4.240552e-001
2.558984375000001e-004	1.000000e+000	4.243537e-001
2.578515625000001e-004	1.000000e+000	4.268191e-001
2.598046875000001e-004	1.000000e+000	4.314002e-001
2.617578125000001e-004	1.000000e+000	4.380389e-001
2.637109375000001e-004	1.000000e+000	4.466702e-001
2.656640625000001e-004	1.000000e+000	4.572231e-001
2.676171875000001e-004	1.000000e+000	4.696206e-001
2.695703125000001e-004	1.000000e+000	4.837804e-001
2.715234375000001e-004	1.000000e+000	4.996148e-001
2.734765625000001e-004	1.000000e+000	5.170319e-001
2.754296875000001e-004	1.000000e+000	5.359352e-001
2.793359375000001e-004	1.000000e+000	5.777971e-001
2.832421875000001e-004	1.000000e+000	6.243631e-001
2.871484375000001e-004	1.000000e+000	6.747577e-001
2.910546875000001e-004	1.000000e+000	7.280814e-001
2.949609375000001e-004	1.000000e+000	7.834258e-001
2.988671875000001e-004	1.000000e+000	8.398869e-001
3.027734375000001e-004	1.000000e+000	8.965785e-001
3.066796875000001e-004	1.000000e+000	9.526746e-001
3.100000000000001e-004	1.000000e+000	9.993348e-001
3.114285714285715e-004	8.571429e-001	8.775980e-001
3.128571428571429e-004	7.142857e-001	7.572691e-001
3.142857142857144e-004	5.714286e-001	6.383479e-001
3.157142857142858e-004	4.285714e-001	5.208347e-001
3.171428571428572e-004	2.857143e-001	4.047292e-001
3.185714285714286e-004	1.428571e-001	2.900316e-001
3.200000000000001e-004	0.000000e+000	1.767418e-001
3.223716517857144e-004	0.000000e+000	2.261988e-001
3.247433035714286e-004	0.000000e+000	2.728371e-001
3.271149553571429e-004	0.000000e+000	3.166567e-001
3.294866071428572e-004	0.000000e+000	3.576576e-001
3.318582589285715e-004	0.000000e+000	3.958398e-001
3.342299107142858e-004	0.000000e+000	4.312033e-001
3.366015625000001e-004	0.000000e+000	4.637481e-001
3.405078125000001e-004	0.000000e+000	5.093293e-001
3.444140625000001e-004	0.000000e+000	5.455581e-001
3.483203125000001e-004	0.000000e+000	5.722513e-001
3.522265625000001e-004	0.000000e+000	5.893751e-001
3.541796875000001e-004	0.000000e+000	5.943776e-001
3.561328125000001e-004	0.000000e+000	5.970402e-001
3.580859375000001e-004	0.000000e+000	5.973979e-001
3.600390625000001e-004	0.000000e+000	5.954940e-001
3.619921875000001e-004	0.000000e+000	5.913793e-001
3.639453125000001e-004	0.000000e+000	5.851122e-001
3.658984375000001e-004	0.000000e+000	5.767578e-001
3.678515625000001e-004	0.000000e+000	5.663880e-001
3.698046875000001e-004	0.000000e+000	5.540808e-001
3.717578125000001e-004	0.000000e+000	5.399203e-001
3.737109375000001e-004	0.000000e+000	5.239957e-001
3.756640625000001e-004	0.000000e+000	5.064011e-001
3.776171875000001e-004	0.000000e+000	4.872352e-001
3.795703125000001e-004	0.000000e+000	4.666008e-001
3.815234375000001e-004	0.000000e+000	4.446040e-001
3.834765625000001e-004	0.000000e+000	4.213542e-001
3.854296875000001e-004	0.000000e+000	3.969634e-001
3.873828125000001e-004	0.000000e+000	3.715458e-001
3.893359375000001e-004	0.000000e+000	3.452170e-001
3.932421875000002e-004	0.000000e+000	2.902946e-001
3.971484375000002e-004	0.000000e+000	2.331784e-001
4.000000000000001e-004	0.000000e+000	1.905705e-001
4.014285714285715e-004	1.428571e-001	3.103162e-001
4.028571428571430e-004	2.857143e-001	4.283490e-001
4.042857142857144e-004	4.285714e-001	5.446686e-001
4.057142857142858e-004	5.714286e-001	6.592753e-001
4.071428571428572e-004	7.142857e-001	7.721689e-001
4.085714285714287e-004	8.571429e-001	8.833494e-001
4.100000000000001e-004	1.000000e+000	9.928169e-001
4.129296875000001e-004	1.000000e+000	9.226506e-001
4.158593750000001e-004	1.000000e+000	8.561909e-001
4.187890625000001e-004	1.000000e+000	7.934379e-001
4.217187500000001e-004	1.000000e+000	7.343916e-001
4.246484375000001e-004	1.000000e+000	6.790520e-001
4.275781250000001e-004	1.000000e+000	6.274190e-001
4.305078125000001e-004	1.000000e+000	5.794927e-001
4.324609375000001e-004	1.000000e+000	5.509168e-001
4.344140625000001e-004	1.000000e+000	5.245880e-001
4.363671875000001e-004	1.000000e+000	5.005624e-001
4.383203125000001e-004	1.000000e+000	4.788860e-001
4.402734375000001e-004	1.000000e+000	4.595954e-001
4.422265625000001e-004	1.000000e+000	4.427170e-001
4.441796875000001e-004	1.000000e+000	4.282682e-001
4.461328125000001e-004	1.000000e+000	4.162565e-001
4.480859375000001e-004	1.000000e+000	4.066800e-001
4.500390625000001e-004	1.000000e+000	3.995280e-001
4.519921875000001e-004	1.000000e+000	3.947804e-001
4.539453125000001e-004	1.000000e+000	3.924089e-001
4.558984375000001e-004	1.000000e+000	3.923764e-001
4.578515625000001e-004	1.000000e+000	3.946378e-001
4.598046875000001e-004	1.000000e+000	3.991403e-001
4.617578125000002e-004	1.000000e+000	4.058236e-001
4.637109375000002e-004	1.000000e+000	4.146203e-001
4.656640625000002e-004	1.000000e+000	4.254563e-001
4.676171875000002e-004	1.000000e+000	4.382515e-001
4.695703125000002e-004	1.000000e+000	4.529195e-001
4.715234375000002e-004	1.000000e+000	4.693690e-001
4.734765625000002e-004	1.000000e+000	4.875033e-001
4.754296875000002e-004	1.000000e+000	5.072214e-001
4.773828125000002e-004	1.000000e+000	5.284184e-001
4.812890625000002e-004	1.000000e+000	5.748114e-001
4.851953125000002e-004	1.000000e+000	6.257797e-001
4.891015625000002e-004	1.000000e+000	6.803869e-001
4.930078125000002e-004	1.000000e+000	7.376780e-001
4.969140625000002e-004	1.000000e+000	7.966945e-001
5.008203125000002e-004	1.000000e+000	8.564890e-001
5.047265625000002e-004	1.000000e+000	9.161384e-001
5.080468750000001e-004	1.000000e+000	9.660969e-001
5.100000000000000e-004	1.000000e+000	9.950117e-001
5.114285714285714e-004	8.571429e-001	8.744237e-001
5.128571428571429e-004	7.142857e-001	7.552294e-001
5.142857142857143e-004	5.714286e-001	6.374290e-001
5.157142857142858e-004	4.285714e-001	5.210223e-001
5.171428571428572e-004	2.857143e-001	4.060094e-001
5.185714285714287e-004	1.428571e-001	2.923903e-001
5.200000000000001e-004	1.554312e-015	1.801650e-001
5.223716517857144e-004	8.189514e-016	2.313369e-001
5.247433035714287e-004	2.546960e-016	2.796060e-001
5.271149553571430e-004	-1.384541e-016	3.249722e-001
5.294866071428572e-004	-3.604987e-016	3.674355e-001
5.318582589285715e-004	-4.114379e-016	4.069959e-001
5.342299107142858e-004	-2.912716e-016	4.436535e-001
5.366015625000001e-004	0.000000e+000	4.774081e-001
5.405078125000001e-004	0.000000e+000	5.247269e-001
5.444140625000001e-004	0.000000e+000	5.623968e-001
5.483203125000001e-004	0.000000e+000	5.902244e-001
5.522265625000001e-004	0.000000e+000	6.081709e-001
5.541796875000001e-004	0.000000e+000	6.134674e-001
5.561328125000001e-004	0.000000e+000	6.163462e-001
5.580859375000001e-004	0.000000e+000	6.168432e-001
5.600390625000001e-004	0.000000e+000	6.150024e-001
5.619921875000001e-004	0.000000e+000	6.108761e-001
5.639453125000001e-004	0.000000e+000	6.045239e-001
5.658984375000001e-004	0.000000e+000	5.960128e-001
5.678515625000001e-004	0.000000e+000	5.854167e-001
5.698046875000001e-004	0.000000e+000	5.728158e-001
5.717578125000001e-004	0.000000e+000	5.582966e-001
5.737109375000001e-004	0.000000e+000	5.419507e-001
5.756640625000001e-004	0.000000e+000	5.238752e-001
5.776171875000001e-004	0.000000e+000	5.041718e-001
5.795703125000001e-004	0.000000e+000	4.829463e-001
5.815234375000001e-004	0.000000e+000	4.603083e-001
5.834765625000001e-004	0.000000e+000	4.363703e-001
5.854296875000001e-004	0.000000e+000	4.112480e-001
5.873828125000001e-004	0.000000e+000	3.850590e-001
5.893359375000001e-004	0.000000e+000	3.579227e-001
5.932421875000001e-004	0.000000e+000	3.012923e-001
5.971484375000001e-004	0.000000e+000	2.423712e-001
6.000000000000001e-004	0.000000e+000	1.983996e-001
6.014285714285714e-004	1.428571e-001	3.174477e-001
6.028571428571429e-004	2.857143e-001	4.347818e-001
6.042857142857143e-004	4.285714e-001	5.504020e-001
6.057142857142858e-004	5.714286e-001	6.643082e-001
6.071428571428572e-004	7.142857e-001	7.765004e-001
6.085714285714287e-004	8.571429e-001	8.869787e-001
6.100000000000001e-004	1.000000e+000	9.957430e-001
6.129296875000001e-004	1.000000e+000	9.241333e-001
6.158593750000001e-004	1.000000e+000	8.562835e-001
6.187890625000001e-004	1.000000e+000	7.921938e-001
6.217187500000001e-004	1.000000e+000	7.318640e-001
6.246484375000001e-004	1.000000e+000	6.752942e-001
6.275781250000001e-004	1.000000e+000	6.224843e-001
6.305078125000001e-004	1.000000e+000	5.734344e-001
6.324609375000001e-004	1.000000e+000	5.441707e-001
6.344140625000001e-004	1.000000e+000	5.171930e-001
6.363671875000001e-004	1.000000e+000	4.925587e-001
6.383203125000001e-004	1.000000e+000	4.703158e-001
6.402734375000001e-004	1.000000e+000	4.505018e-001
6.422265625000001e-004	1.000000e+000	4.331446e-001
6.441796875000001e-004	1.000000e+000	4.182623e-001
6.461328125000001e-004	1.000000e+000	4.058632e-001
6.480859375000001e-004	1.000000e+000	3.959461e-001
6.500390625000001e-004	1.000000e+000	3.885005e-001
6.519921875000001e-004	1.000000e+000	3.835067e-001
6.539453125000001e-004	1.000000e+000	3.809362e-001
6.558984375000001e-004	1.000000e+000	3.807519e-001
6.578515625000001e-004	1.000000e+000	3.829083e-001
6.598046875000001e-004	1.000000e+000	3.873521e-001
6.617578125000001e-004	1.000000e+000	3.940223e-001
6.637109375000001e-004	1.000000e+000	4.028508e-001
6.656640625000001e-004	1.000000e+000	4.137624e-001
6.676171875000001e-004	1.000000e+000	4.266758e-001
6.695703125000001e-004	1.000000e+000	4.415034e-001
6.715234375000001e-004	1.000000e+000	4.581525e-001
6.734765625000001e-004	1.000000e+000	4.765249e-001
6.754296875000001e-004	1.000000e+000	4.965179e-001
6.773828125000001e-004	1.000000e+000	5.180249e-001
6.812890625000002e-004	1.000000e+000	5.651358e-001
6.851953125000002e-004	1.000000e+000	6.169389e-001
6.891015625000002e-004	1.000000e+000	6.724811e-001
6.930078125000002e-004	1.000000e+000	7.307894e-001
6.969140625000002e-004	1.000000e+000	7.908872e-001
7.008203125000002e-004	1.000000e+000	8.518082e-001
7.047265625000002e-004	1.000000e+000	9.126110e-001
7.080468750000001e-004	1.000000e+000	9.635574e-001
7.100000000000000e-004	1.000000e+000	9.930525e-001
7.114285714285714e-004	8.571429e-001	8.728877e-001
7.128571428571429e-004	7.142857e-001	7.541120e-001
7.142857142857143e-004	5.714286e-001	6.367256e-001
7.157142857142858e-004	4.285714e-001	5.207285e-001
7.171428571428572e-004	2.857143e-001	4.061206e-001
7.185714285714287e-004	1.428571e-001	2.929019e-001
7.200000000000001e-004	1.554312e-015	1.810725e-001
7.223716517857144e-004	8.189514e-016	2.328844e-001
7.247433035714287e-004	2.546960e-016	2.817640e-001
7.271149553571430e-004	-1.384541e-016	3.277111e-001
7.294866071428572e-004	-3.604987e-016	3.707258e-001
7.318582589285715e-004	-4.114379e-016	4.108080e-001
7.342299107142858e-004	-2.912716e-016	4.479578e-001
7.366015625000001e-004	0.000000e+000	4.821753e-001
7.405078125000001e-004	0.000000e+000	5.301640e-001
7.444140625000001e-004	0.000000e+000	5.683970e-001
7.483203125000001e-004	0.000000e+000	5.966767e-001
7.522265625000001e-004	0.000000e+000	6.149614e-001
7.541796875000001e-004	0.000000e+000	6.203842e-001
7.561328125000001e-004	0.000000e+000	6.233608e-001
7.580859375000001e-004	0.000000e+000	6.239271e-001
7.600390625000001e-004	0.000000e+000	6.221275e-001
7.619921875000001e-004	0.000000e+000	6.180148e-001
7.639453125000001e-004	0.000000e+000	6.116489e-001
7.658984375000001e-004	0.000000e+000	6.030976e-001
7.678515625000001e-004	0.000000e+000	5.924352e-001
7.698046875000001e-004	0.000000e+000	5.797429e-001
7.717578125000001e-004	0.000000e+000	5.651078e-001
7.737109375000001e-004	0.000000e+000	5.486227e-001
7.756640625000001e-004	0.000000e+000	5.303854e-001
7.776171875000000e-004	0.000000e+000	5.104989e-001
7.795703125000000e-004	0.000000e+000	4.890698e-001
7.815234375000000e-004	0.000000e+000	4.662089e-001
7.834765625000000e-004	0.000000e+000	4.420303e-001
7.854296875000000e-004	0.000000e+000	4.166506e-001
7.873828125000000e-004	0.000000e+000	3.901887e-001
7.893359375000000e-004	0.000000e+000	3.627656e-001
7.932421875000000e-004	0.000000e+000	3.055244e-001
7.971484375000000e-004	0.000000e+000	2.459537e-001
8.000000000000000e-004	0.000000e+000	2.014889e-001
8.014285714285714e-004	1.428571e-001	3.202835e-001
8.028571428571429e-004	2.857143e-001	4.373635e-001
8.042857142857143e-004	4.285714e-001	5.527287e-001
8.057142857142858e-004	5.714286e-001	6.663792e-001
8.071428571428572e-004	7.142857e-001	7.783149e-001
8.085714285714287e-004	8.571429e-001	8.885359e-001
8.100000000000001e-004	1.000000e+000	9.970421e-001
8.129296875000001e-004	1.000000e+000	9.249008e-001
8.158593750000001e-004	1.000000e+000	8.565374e-001
8.187890625000001e-004	1.000000e+000	7.919520e-001
8.217187500000000e-004	1.000000e+000	7.311445e-001
8.246484375000000e-004	1.000000e+000	6.741150e-001
8.275781250000000e-004	1.000000e+000	6.208634e-001
8.305078125000000e-004	1.000000e+000	5.713898e-001
8.324609375000000e-004	1.000000e+000	5.418656e-001
8.344140625000000e-004	1.000000e+000	5.146410e-001
8.363671875000000e-004	1.000000e+000	4.897744e-001
8.383203125000000e-004	1.000000e+000	4.673141e-001
8.402734375000000e-004	1.000000e+000	4.472982e-001
8.422265625000000e-004	1.000000e+000	4.297552e-001
8.441796875000000e-004	1.000000e+000	4.147034e-001
8.461328125000000e-004	1.000000e+000	4.021515e-001
8.480859375000000e-004	1.000000e+000	3.920986e-001
8.500390625000000e-004	1.000000e+000	3.845343e-001
8.519921875000000e-004	1.000000e+000	3.794391e-001
8.539453125000000e-004	1.000000e+000	3.767846e-001
8.558984375000000e-004	1.000000e+000	3.765335e-001
8.578515625000000e-004	1.000000e+000	3.786403e-001
8.598046875000000e-004	1.000000e+000	3.830516e-001
8.617578125000000e-004	1.000000e+000	3.897062e-001
8.637109375000000e-004	1.000000e+000	3.985355e-001
8.656640625000000e-004	1.000000e+000	4.094644e-001
